!! 
!! CHANNEL DESCRIPTION: Next Generation 28Gbps High Density SMT I/O Connector
!!       with 10" 5-6-5 Megatron 6 Stripline trace on host side and 1.25" 7-5-7 Megtron 6 Microstrip trace on plug side at 14GHz
!!	                 
!! HOST PCB DESCRIPTION: PCB thickness 2.86 mm, Nelco 4000-13SI (Dk 3.32, Df 0.010)
!!       23 Layer Board, 12 GND planes, 2 Layer route-out on Layers 10,12, 8 mil stub on vias
!!       Pairs on following layers
!!          
!!          Layer 12 - B5B6  
!!
!! CONNECTOR DESCRIPTION:  Next Generation 28Gbps High Density SMT I/O Connector
!!
!! PLUG-IN CARD DESCRIPTION:  PCB thickness 1mm thick, Nelco 4000-13SI (Dk 3.32, Df 0.010)
!!       6 Layer Board, 4 GND planes, 0.35 x 1.4mm mating pads
!!       Micro-strip diff traces referenced to GND plane 3mils down, 2nd GND plane 15mils from top of board 
!!         PCB GND planes are symmetric
!!       
!! 
!! MODEL DESCRIPTION: TE Connectivity S-parameter model produced from Macro-model
!! MODEL DATE: 9/25/2014 CR1a_GC1i, VR6&12_4 
!! MODEL STATUS: Developmental
!! MODEL GEOMETRY: 2 Rows - Rows A, B. 3 pairs in each row, 6 total pairs
!! MODEL FREQUENCY RANGE: DC to 42 GHz in 10 MHz frequency steps
!! MODEL EDGE RATE LIMITATION: 11.90 ps (Using conservative 0.5/Fmax rule of thumb)
!! 
!! TIME-DOMAIN TRANSFORM CAUTIONS:
!! 1.) Do not simulate transient edge rates faster than the number listed above.  Edge
!!     rates faster than this number contain significant spectral content at frequencies
!!     above the model's highest frequency.
!! 2.) Even when simulating edge rates that are slower than the number listed above, be
!!     aware that the best time resolution possible with a direct iFFT is (1 / 2Fmax).
!!     As a result, time resolution is typically not adequate for most time-domain
!!     simulations unless tricks such as frequency-domain zero-padding and windowing are
!!     used to minimize leakage and aliasing. 
!! 3.) Because the model has a uniform frequency step, a direct iFFT will result in an
!!     impulse that that has a time length given by either (1 / Fstep) or (1 / 2Fstep),
!!     depending on the transform being used.  Care has been taken in selecting the
!!     frequency step to ensure a settled impulse response for the model.  Therefore,
!!     convolution with the model's impulse response should present no issues.  However,
!!     if directly concatenating s-parameter models in the frequency domain a user must
!!     either interpolate necessary interim frequencies or complete impulse response 
!!     zero-padding.  Impulse response zero-padding is more difficult, but more accurate. 
!! 
!! PORT DEFINITIONS: 
!! Port  1  ----->  Host, Bot Row  B5     B5   Module, Top Row   <-----  Port  2
!! Port  3  ----->  Host, Bot Row  B6     B6   Module, Top Row   <-----  Port  4
!!
# Hz S MA R 50

!
                   0         0.0207098912     -2.69824377e-012          0.979190262       6.9097168e-015       0.000308474091      2.60931241e-010       0.000293603522                 -180
         0.979190262       6.9097168e-015         0.0207023238      1.08602931e-011       0.000293616922                 -180       0.000304336926      8.77625101e-011
      0.000308474091      2.60931241e-010       0.000293616922                 -180         0.0207107215     -1.04878235e-011          0.979190118      1.01789745e-014
      0.000293603522                 -180       0.000304336926      8.77625101e-011          0.979190118      1.01789745e-014         0.0207018712      5.78728136e-012

!
            10000000         0.0273506886           26.2238166   0.9738018630000001   -7.055064129999999         0.0145104459           80.8690373        0.00254051549          -106.830543
  0.9738018630000001   -7.055064129999999         0.0253628268           28.9308687 0.002539787689999999           -106.84444         0.0145807898    87.77476660000002
        0.0145104459           80.8690373 0.002539787689999999           -106.84444         0.0274333744           26.1048985          0.974059719   -7.067206260000001
       0.00254051549          -106.830543         0.0145807898    87.77476660000002          0.974059719   -7.067206260000001         0.0252563408           29.0994409

!
            20000000         0.0379417974    36.70489039999999          0.972397256          -13.9991909         0.0287119561    73.17786610000002        0.00500600545           -115.11514
         0.972397256          -13.9991909         0.0361401839           41.5720204        0.00500478565          -115.118511         0.0292397743           79.4731773
        0.0287119561    73.17786610000002        0.00500478565          -115.118511         0.0379652876    36.59536339999999          0.972417336          -14.0235629
       0.00500600545           -115.11514         0.0292397743           79.4731773          0.972417336          -14.0235629         0.0361064715           41.7476815

!
            30000000         0.0503223749           38.5843781          0.970914947          -20.9662617         0.0423164049           65.2174551 0.007331805040000001          -125.336142
         0.970914947          -20.9662617         0.0482636803           44.8084238          0.007330676          -125.341076         0.0430758764           72.6358446
        0.0423164049           65.2174551          0.007330676          -125.341076         0.0503289212           38.5335441          0.970678959          -20.9908713
0.007331805040000001          -125.336142         0.0430758764           72.6358446          0.970678959          -20.9908713         0.0482626853           44.9234432

!
            40000000  0.06287882340000001           36.2696161           0.96902055          -27.9304013         0.0550869185            57.214468 0.009456020909999998          -135.896131
          0.96902055          -27.9304013  0.06023238409999999           44.0782547 0.009454778570000001          -135.907443  0.05596886959999999           66.3158466
        0.0550869185            57.214468 0.009454778570000001          -135.907443  0.06289989059999999           36.2492138          0.968602275          -27.9485713
0.009456020909999998          -135.896131  0.05596886959999999           66.3158466          0.968602275          -27.9485713         0.0602355254            44.158894

!
            50000000  0.07479568490000001           31.8439917   0.9667410570000001          -34.8762881         0.0668093635           49.2119646         0.0113294682          -146.435072
  0.9667410570000001          -34.8762881          0.071424187    41.48028550000001         0.0113273465          -146.453522  0.06776584970000001    60.27576119999999
        0.0668093635           49.2119646         0.0113273465          -146.453522         0.0748425095           31.8314233          0.966226551          -34.8855418
        0.0113294682          -146.435072  0.06776584970000001    60.27576119999999          0.966226551          -34.8855418  0.07142130300000001           41.5485106

!
            60000000  0.08561417289999999           26.2716188   0.9642099380000001          -41.7960049         0.0773015587           41.2194949         0.0129148298          -156.794678
  0.9642099380000001          -41.7960049         0.0814944459           37.9092244         0.0129108798          -156.818778  0.07831832600000001    54.43057440000001
        0.0773015587           41.2194949         0.0129108798          -156.818778         0.0856860114           26.2554408          0.963668899   -41.79630280000001
        0.0129148298          -156.794678  0.07831832600000001    54.43057440000001          0.963668899   -41.79630280000001         0.0814859793    37.97662070000001

!
            70000000         0.0950548656           20.0262957          0.961578275   -48.68696139999999  0.08641406760000001    33.23307079999999          0.014186776          -166.868462
         0.961578275   -48.68696139999999  0.09021770419999999           33.8010559         0.0141801623           -166.89563         0.0874942151           48.7471183
 0.08641406760000001    33.23307079999999         0.0141801623           -166.89563         0.0951458531           20.0019151          0.961059453          -48.6794167
         0.014186776          -166.868462         0.0874942151           48.7471183          0.961059453          -48.6794167  0.09020856639999998           33.8726045

!
            80000000          0.102939284           13.3529919          0.958983079          -55.5500372  0.09402803470000001           25.2403047         0.0151321607           -176.55956
         0.958983079          -55.5500372         0.0974370801    29.39350309999999         0.0151223355           -176.58675         0.0951837801           43.2140842
 0.09402803470000001           25.2403047         0.0151223355           -176.58675          0.103042368           13.3192782          0.958517394          -55.5361942
        0.0151321607           -176.55956         0.0951837801           43.2140842          0.958517394          -55.5361942          0.097433135           29.4706992

!
            90000000          0.109151378            6.3809264          0.956537444          -62.3883544          0.100051878           17.2221037         0.0157506215            174.23843
         0.956537444          -62.3883544          0.103043299           24.8291401         0.0157374007           174.214425          0.101301074           37.8312232
         0.100051878           17.2221037         0.0157374007           174.214425          0.109260282    6.338284550000001   0.9561423870000001          -62.3698212
        0.0157506215            174.23843          0.101301074           37.8312232   0.9561423870000001          -62.3698212          0.103049607           24.9118194

!
           100000000          0.113616851         -0.824343512          0.954327893   -69.20650000000001            0.1044178    9.153076959999998         0.0160559718           165.654518
         0.954327893   -69.20650000000001          0.106963518           20.2019031         0.0160395463           165.636957          0.105783039           32.6058071
           0.1044178    9.153076959999998         0.0160395463           165.636957          0.113726896  -0.8750004780000001          0.954011391          -69.1847727
        0.0160559718           165.654518          0.105783039           32.6058071          0.954011391          -69.1847727          0.106983605           20.2892307

!
           110000000          0.116291306          -8.23564431   0.9524139820000001   -76.00999260000002          0.107078827           1.00114436         0.0160788411           157.851145
  0.9524139820000001   -76.00999260000002           0.10915443           15.5810346         0.0160597549           157.843332          0.108588062           27.5524968
         0.107078827           1.00114436         0.0160597549           157.843332          0.116399591   -8.293438719999999          0.952177411          -75.9863788
        0.0160788411           157.851145          0.108588062           27.5524968          0.952177411          -75.9863788          0.109190127           15.6720273

!
           120000000          0.117153425           -15.851727          0.950828648   -82.80487290000001          0.108006946   -7.273684799999999          0.015871042           151.030928
         0.950828648   -82.80487290000001           0.10959809           11.0254961         0.0158501606           151.036216          0.109695231           22.6953013
         0.108006946   -7.273684799999999         0.0158501606           151.036216          0.117258672          -15.9161085   0.9506690830000001   -82.78046809999999
         0.015871042           151.030928          0.109695231           22.6953013   0.9506690830000001   -82.78046809999999          0.109649679           11.1192931

!
           130000000          0.116201648          -23.6917114          0.949578897          -89.5973549          0.107192816          -15.7216955         0.0155118674           145.430561
         0.949578897          -89.5973549          0.108300178           6.59464746         0.0154903521           145.452205          0.109105183           18.0713921
         0.107192816          -15.7216955         0.0154903521           145.452205          0.116303896          -23.7626241          0.949490756          -89.5730461
        0.0155118674           145.430561          0.109105183           18.0713921          0.949490756          -89.5730461          0.108366691    6.690650229999999

!
           140000000          0.113453777          -31.7940915   0.9486467790000001          -96.3935067          0.104647484          -24.4077132         0.0151152919           141.281548
  0.9486467790000001          -96.3935067          0.105290864           2.35845526         0.0150945727           141.322142          0.106843307           13.7372053
         0.104647484          -24.4077132         0.0150945727           141.322142          0.113554037   -31.87208829999999   0.9486229940000001   -96.36998970000001
        0.0151152919           141.281548          0.106843307           13.7372053   0.9486229940000001   -96.36998970000001          0.105370449           2.45640147

!
           150000000           0.10894944          -40.2199017          0.947990737          -103.198941           0.10040661          -33.4185376         0.0148336992           138.706995
         0.947990737          -103.198941          0.100628857          -1.59006883         0.0148153995           138.767194          0.102966127    9.777935789999999
          0.10040661          -33.4185376         0.0148153995           138.767194          0.109049399          -40.3062551          0.948023567          -103.176745
        0.0148336992           138.706995          0.102966127    9.777935789999999          0.948023567          -103.176745           0.10071916          -1.49005974

!
           160000000           0.10275574          -49.0612574          0.947547562          -110.018509         0.0945380158          -42.8760954         0.0148481619           137.546349
         0.947547562          -110.018509  0.09440969470000001          -5.11677134         0.0148338841           137.623114  0.09757218280000002    6.322457109999999
        0.0945380158          -42.8760954         0.0148338841           137.623114          0.102857574          -49.1581023          0.947629138          -109.998024
        0.0148481619           137.546349  0.09757218280000002    6.322457109999999          0.947629138          -109.998024          0.094508259          -5.01416303

!
           170000000         0.0949770683           -58.458728   0.9472352140000001          -116.856005  0.08715420610000001          -52.9613153         0.0153339553           137.207458
  0.9472352140000001          -116.856005         0.0867805934   -8.016944980000002         0.0153248885           137.293438         0.0908197115           3.56708512
 0.08715420610000001          -52.9613153         0.0153248885           137.293438         0.0950834175          -58.5692689          0.947357881          -116.837506
        0.0153339553           137.207458         0.0908197115           3.56708512          0.947357881          -116.837506         0.0868852806          -7.91076389

!
           180000000  0.08577152419999999   -68.63526520000001          0.946956803          -123.713885  0.07843366509999999   -63.95889130000001         0.0164072041           136.760902
         0.946956803          -123.713885  0.07796689330000001   -9.964373269999998         0.0164037522           136.846815  0.08295568289999999           1.81323242
 0.07843366509999999   -63.95889130000001         0.0164037522           136.846815         0.0858857242   -68.76406110000001          0.947113309          -123.697556
        0.0164072041           136.760902  0.08295568289999999           1.81323242          0.947113309          -123.697556         0.0780763634          -9.85326179

!
           190000000         0.0753801375          -79.9635196   0.9466059439999999           -130.59303         0.0686602051          -76.3436703          0.018087518           135.321843
  0.9466059439999999           -130.59303         0.0683215839          -10.4213111         0.0180892853           135.400494         0.0743649071           1.52335304
        0.0686602051          -76.3436703         0.0180892853           135.400494  0.07550684520000001          -80.1167521   0.9467895259999999          -130.578984
         0.018087518           135.321843         0.0743649071           1.52335304   0.9467895259999999          -130.578984         0.0684358909           -10.303886

!
           200000000         0.0641851271          -93.1025018   0.9460735060000001          -137.492583         0.0583035838   -90.94683310000001         0.0203057652           132.393254
  0.9460735060000001          -137.492583         0.0584233086   -8.490827769999999         0.0203119159           132.461471         0.0656535358    3.383820790000001
        0.0583035838   -90.94683310000001         0.0203119159           132.461471  0.06433157790000001          -93.2876201   0.9462779140000001          -137.480878
        0.0203057652           132.393254         0.0656535358    3.383820790000001   0.9462779140000001          -137.480878         0.0585446037   -8.367130980000002

!
           210000000  0.05283998919999999          -109.267516   0.9452555280000001          -144.409892         0.0481964074          -109.232041         0.0229421458           127.899351
  0.9452555280000001          -144.409892  0.04926754990000001           -2.7694146         0.0229518098           127.957099         0.0577764095           8.28502372
        0.0481964074          -109.232041         0.0229518098           127.957099  0.05301806380000001          -109.489342          0.945474995          -144.400544
        0.0229421458           127.899351         0.0577764095           8.28502372          0.945474995          -144.400544         0.0494004304          -2.64562984

!
           220000000         0.0425706019          -130.618099          0.944061697          -151.340594         0.0398894505          -133.391216         0.0258616174           122.016722
         0.944061697          -151.340594         0.0425422439    8.276220090000001         0.0258741152           122.065388  0.05214276789999999    16.90283700000001
        0.0398894505          -133.391216         0.0258741152           122.065388         0.0427981577          -130.859932          0.944290903          -151.333587
        0.0258616174           122.016722  0.05214276789999999    16.90283700000001          0.944290903          -151.333587         0.0426916084    8.377938839999999

!
           230000000  0.03569619400000001          -159.692548           0.94242351          -158.278858          0.035935796          -164.386245         0.0289332747           115.008586
          0.94242351          -158.278858          0.040495602           23.9988356         0.0289481671           115.049808         0.0503852508           28.5027323
         0.035935796          -164.386245         0.0289481671           115.049808         0.0359868482          -159.865083   0.9426575419999999          -158.274148
        0.0289332747           115.008586         0.0503852508           28.5027323   0.9426575419999999          -158.274148         0.0406595331            24.043427

!
           240000000         0.0352691568           165.744063   0.9403010510000002          -165.217774          0.038516767           163.001619         0.0320377599           107.134474
  0.9403010510000002          -165.217774         0.0443584977    39.31992970000001         0.0320548083           107.169631  0.05343966370000001           40.1970148
