!! 
!! CHANNEL DESCRIPTION: Next Generation 28Gbps High Density SMT I/O Connector
!!       with 4" 5-6-5 Megatron 6 Stripline trace on host side and 1.25" 7-5-7 Megtron 6 Microstrip trace on plug side at 14GHz
!!	                 
!! HOST PCB DESCRIPTION: PCB thickness 2.86 mm, Nelco 4000-13SI (Dk 3.32, Df 0.010)
!!       23 Layer Board, 12 GND planes, 2 Layer route-out on Layers 10,12, 8 mil stub on vias
!!       Pairs on following layers
!!          
!!          Layer 12 - B5B6  
!!
!! CONNECTOR DESCRIPTION:  Next Generation 28Gbps High Density SMT I/O Connector
!!
!! PLUG-IN CARD DESCRIPTION:  PCB thickness 1mm thick, Nelco 4000-13SI (Dk 3.32, Df 0.010)
!!       6 Layer Board, 4 GND planes, 0.35 x 1.4mm mating pads
!!       Micro-strip diff traces referenced to GND plane 3mils down, 2nd GND plane 15mils from top of board 
!!         PCB GND planes are symmetric
!!       
!! 
!! MODEL DESCRIPTION: TE Connectivity S-parameter model produced from Macro-model
!! MODEL DATE: 9/25/2014 CR1a_GC1i, VR6&12_4 
!! MODEL STATUS: Developmental
!! MODEL GEOMETRY: 2 Rows - Rows A, B. 3 pairs in each row, 6 total pairs
!! MODEL FREQUENCY RANGE: DC to 42 GHz in 10 MHz frequency steps
!! MODEL EDGE RATE LIMITATION: 11.90 ps (Using conservative 0.5/Fmax rule of thumb)
!! 
!! TIME-DOMAIN TRANSFORM CAUTIONS:
!! 1.) Do not simulate transient edge rates faster than the number listed above.  Edge
!!     rates faster than this number contain significant spectral content at frequencies
!!     above the model's highest frequency.
!! 2.) Even when simulating edge rates that are slower than the number listed above, be
!!     aware that the best time resolution possible with a direct iFFT is (1 / 2Fmax).
!!     As a result, time resolution is typically not adequate for most time-domain
!!     simulations unless tricks such as frequency-domain zero-padding and windowing are
!!     used to minimize leakage and aliasing. 
!! 3.) Because the model has a uniform frequency step, a direct iFFT will result in an
!!     impulse that that has a time length given by either (1 / Fstep) or (1 / 2Fstep),
!!     depending on the transform being used.  Care has been taken in selecting the
!!     frequency step to ensure a settled impulse response for the model.  Therefore,
!!     convolution with the model's impulse response should present no issues.  However,
!!     if directly concatenating s-parameter models in the frequency domain a user must
!!     either interpolate necessary interim frequencies or complete impulse response 
!!     zero-padding.  Impulse response zero-padding is more difficult, but more accurate. 
!! 
!! PORT DEFINITIONS: 
!! Port  1  ----->  Host, Bot Row  B5     B5   Module, Top Row   <-----  Port  2
!! Port  3  ----->  Host, Bot Row  B6     B6   Module, Top Row   <-----  Port  4
!!
# Hz S MA R 50

!
                   0        0.00942176873     -6.06856085e-012          0.990477233      7.56775584e-015       0.000315625883      2.60935097e-010       0.000300583536                 -180
         0.990477233      7.56775584e-015        0.00941650315      2.38591625e-011       0.000300597088                 -180       0.000311145349 8.615382189999999e-011
      0.000315625883      2.60935097e-010       0.000300597088                 -180         0.0094226183     -2.35865762e-011          0.990477078      1.27359655e-014
      0.000300583536                 -180       0.000311145349 8.615382189999999e-011          0.990477078      1.27359655e-014        0.00941605394      1.26962838e-011

!
            10000000         0.0142937316           35.2092883   0.9858691350000001          -3.48889559        0.00868089474           84.1819544        0.00234210069          -101.824056
  0.9858691350000001          -3.48889559         0.0128433803    40.77791249999999         0.0023420095          -101.839601 0.008824488130000001           93.5528372
       0.00868089474           84.1819544         0.0023420095          -101.839601         0.0143766168           34.9659181          0.986128934          -3.50106873
       0.00234210069          -101.824056 0.008824488130000001           93.5528372          0.986128934          -3.50106873         0.0127505942           41.2382253

!
            20000000          0.021015619             49.13055          0.985477567          -6.88748147         0.0173347364            80.661671        0.00465674588          -103.804006
         0.985477567          -6.88748147         0.0204075858    55.47164339999999        0.00465620687          -103.813014         0.0179317138           86.6266049
        0.0173347364            80.661671        0.00465620687          -103.813014         0.0210421305    48.92973889999999   0.9854966300000001   -6.911877239999998
       0.00465674588          -103.804006         0.0179317138           86.6266049   0.9854966300000001   -6.911877239999998         0.0204084377    55.83224670000001

!
            30000000          0.028907153    54.07533250000001   0.9851834120000002          -10.3258299          0.025888091    76.63554139999999        0.00693926285          -107.997341
  0.9851834120000002          -10.3258299         0.0286039674    60.05987139999999        0.00693831317          -108.004252         0.0266633861    82.24332149999999
         0.025888091    76.63554139999999        0.00693831317          -108.004252         0.0289185127           53.9860504          0.984943014           -10.350464
       0.00693926285          -107.997341         0.0266633861    82.24332149999999          0.984943014           -10.350464         0.0286481359           60.2661262

!
            40000000         0.0372050922           54.9280212          0.984591947          -13.7796116         0.0343064717           72.4947894        0.00917432864          -112.699769
         0.984591947          -13.7796116         0.0368360877           61.2073687        0.00917289696          -112.705811         0.0351161315           78.6923546
        0.0343064717           72.4947894        0.00917289696          -112.705811         0.0372304109           54.8985429          0.984166605           -13.797829
       0.00917432864          -112.699769         0.0351161315           78.6923546          0.984166605           -13.797829         0.0368931722    61.32890509999999

!
            50000000         0.0455557552    53.79195310000001   0.9836516849999999          -17.2347647         0.0425530095           68.3167792          0.011350519          -117.575666
  0.9836516849999999          -17.2347647         0.0449421731           60.8514632         0.0113484845          -117.581034  0.04333205069999999           75.5184074
        0.0425530095           68.3167792         0.0113484845          -117.581034         0.0456068476    53.78522100000001          0.983128389           -17.244118
         0.011350519          -117.575666  0.04333205069999999           75.5184074          0.983128389           -17.244118          0.044999336           60.9327011

!
            60000000         0.0537791873           51.6031777          0.982409736           -20.683477         0.0505934691           64.1279785         0.0134576802          -122.512475
         0.982409736           -20.683477          0.052850552    59.71694340000001         0.0134549261          -122.516922  0.05132165189999999            72.539174
        0.0505934691           64.1279785         0.0134549261          -122.516922         0.0538578479            51.600664          0.981858923          -20.6839518
        0.0134576802          -122.512475  0.05132165189999999            72.539174          0.981858923          -20.6839518         0.0529047244    59.78101769999999

!
            70000000         0.0617767698           48.8149124          0.980931739          -24.1219072         0.0583968723           59.9393986         0.0154866723          -127.460064
         0.980931739          -24.1219072         0.0605147658    58.13338880000001         0.0154831306           -127.46318          0.059076097    69.67171140000001
        0.0583968723           59.9393986         0.0154831306           -127.46318         0.0618802038           48.8088044          0.980402635          -24.1146301
        0.0154866723          -127.460064          0.059076097    69.67171140000001          0.980402635          -24.1146301  0.06056750050000001           58.1914244

!
            80000000         0.0694898369           45.6635034          0.979277272          -27.5483727         0.0659353337           55.7557888         0.0174293794          -132.391368
         0.979277272          -27.5483727          0.067898587           56.2731349          0.017425058          -132.392741  0.06657726410000001           66.8765487
        0.0659353337           55.7557888          0.017425058          -132.392741  0.06961368289999999           45.6513896          0.978801061   -27.53488760000001
        0.0174293794          -132.391368  0.06657726410000001           66.8765487          0.978801061   -27.53488760000001         0.0679531989           56.3299766

!
            90000000  0.07688013740000001           42.2801281   0.9774954340000001          -30.9622888         0.0731838273           51.5788976         0.0192787293          -137.289461
  0.9774954340000001          -30.9622888  0.07497179549999999    54.23580470000001         0.0192737213          -137.288764         0.0738037184    64.13460120000001
        0.0731838273           51.5788976         0.0192737213          -137.288764  0.07702000990000001    42.26214000000001          0.977089732          -30.9441915
        0.0192787293          -137.289461         0.0738037184    64.13460120000001          0.977089732          -30.9441915  0.07503189020000001           54.2931204

!
           100000000  0.08392044089999999    38.74144990000001          0.975626082          -34.3636234  0.08011999490000001           47.4088446         0.0210287049          -142.142393
         0.975626082          -34.3636234         0.0817086242           52.0834512         0.0210231849          -142.139431         0.0807337897           61.4367462
 0.08011999490000001           47.4088446         0.0210231849          -142.139431         0.0840726611           38.7187935          0.975298852   -34.34239010000001
        0.0210287049          -142.142393         0.0807337897           61.4367462          0.975298852   -34.34239010000001         0.0817773893           52.1413677

!
           110000000         0.0905899454           35.0941774   0.9737019770000001          -37.7526315         0.0867239935    43.24475990000001         0.0226743537          -146.940831
  0.9737019770000001          -37.7526315          0.088087021           49.8570503         0.0226685634          -146.935554          0.087347065    58.77889140000001
        0.0867239935    43.24475990000001         0.0226685634          -146.935554          0.090751832    35.06838689999999   0.9734545650000002          -37.7295467
        0.0226743537          -146.940831          0.087347065    58.77889140000001   0.9734545650000002          -37.7295467         0.0881669294    49.91501170000001

!
           120000000         0.0968719963    31.36768139999999          0.971750604          -41.1297269         0.0929783632           39.0851015         0.0242117968          -151.676865
         0.971750604          -41.1297269         0.0940882306            47.584989         0.0242060246          -151.669367  0.09362507419999999    56.15955440000001
        0.0929783632           39.0851015         0.0242060246          -151.669367  0.09704191230000001           31.3402484   0.9715800020000001   -41.10586380000001
        0.0242117968          -151.676865  0.09362507419999999    56.15955440000001   0.9715800020000001   -41.10586380000001         0.0941809641    47.64220329999999

!
           130000000          0.102752932           27.5808086          0.969795488   -44.49542320000001         0.0988679014           34.9278178          0.025638235          -156.343354
         0.969795488   -44.49542320000001         0.0996965199    45.28775630000001         0.0256327935          -156.333863         0.0995515659           53.5786371
        0.0988679014           34.9278178         0.0256327935          -156.333863          0.102930202           27.5530092   0.9696959650000001          -44.4716491
         0.025638235          -156.343354         0.0995515659           53.5786371   0.9696959650000001          -44.4716491         0.0998030075           45.3434216

!
           140000000          0.108221482           23.7457227   0.9678570679999999          -47.8503053          0.104379538           30.7704306         0.0269519542          -160.933553
  0.9678570679999999          -47.8503053          0.104898969           42.9806863          0.026947157          -160.922408          0.105112572           51.0367927
         0.104379538           30.7704306          0.026947157          -160.922408          0.108406241           23.7185516          0.967821342          -47.8273005
        0.0269519542          -160.933553          0.105112572           51.0367927          0.967821342          -47.8273005          0.105019482           43.0340981

!
           150000000          0.113268428           19.8701524          0.965953262          -51.1950166          0.109502204           26.6100764         0.0281523263           -165.44087
         0.965953262          -51.1950166          0.109685288           40.6756438         0.0281484669          -165.428506          0.110296357    48.53509840000001
         0.109502204           26.6100764         0.0281484669          -165.428506          0.113461451           19.8443138          0.965973318          -51.1732977
        0.0281523263           -165.44087          0.110296357    48.53509840000001          0.965973318          -51.1732977          0.109819556           40.7262378

!
           160000000          0.117886394           15.9587513          0.964099827          -54.5302523            0.1142267           22.4435236         0.0292398117          -169.858713
         0.964099827          -54.5302523          0.114047641           38.3821056         0.0292371446          -169.845637          0.115093313           46.0748918
           0.1142267           22.4435236         0.0292371446          -169.845637          0.118088922            15.934678          0.964167474          -54.5101962
        0.0292398117          -169.858713          0.115093313           46.0748918          0.964167474          -54.5101962          0.114194973    38.42946660000001

!
           170000000           0.12206969           12.0139429          0.962310566   -57.85675439999999          0.118545563    18.26717560000001         0.0302159619          -174.180384
         0.962310566   -57.85675439999999          0.117980475           36.1078852         0.0302146874          -174.167154          0.119495821           43.6576992
         0.118545563    18.26717560000001         0.0302146874          -174.167154          0.122283271           11.9918294          0.962417814   -57.83862180000001
        0.0302159619          -174.180384          0.119495821           43.6576992          0.962417814   -57.83862180000001          0.118139868           36.1517387

!
           180000000          0.125814184           8.03645951   0.9605974659999998          -61.1753073          0.122452936           14.0770655         0.0310834279          -178.399007
  0.9605974659999998          -61.1753073          0.121480345           33.8596396         0.0310836797          -178.386215          0.123498113           41.2852177
         0.122452936           14.0770655         0.0310836797          -178.386215          0.126040533    8.016299520000002          0.960736759          -61.1592638
        0.0310834279          -178.399007          0.123498113           41.2852177          0.960736759          -61.1592638          0.121650586           33.8998358

!
           190000000          0.129117187    4.025690510000001           0.95897077          -64.4867335          0.125944453           9.86884397         0.0318459742           177.492512
          0.95897077          -64.4867335          0.124545758           31.6432413         0.0318478109            177.50426          0.127096137           38.9593291
         0.125944453           9.86884397         0.0318478109            177.50426          0.129358071    4.007314140000001          0.959135128          -64.4728678
        0.0318459742           177.492512          0.127096137           38.9593291          0.959135128          -64.4728678          0.124725509           31.6797359

!
           200000000          0.131977351        -0.0200905702   0.9574390259999999          -67.7918873          0.129017131           5.63776107         0.0325085023           173.501494
  0.9574390259999999          -67.7918873          0.127177021    29.46406339999999         0.0325119016           173.511595          0.130287438    36.68213610000001
         0.129017131           5.63776107         0.0325119016           173.511595          0.132234499        -0.0369822643           0.95762212   -67.78022730000001
        0.0325085023           173.501494          0.130287438    36.68213610000001           0.95762212   -67.78022730000001          0.127364885           29.4968993

!
           210000000          0.134394582          -4.10357975          0.956009122   -71.09164939999999          0.131669293           1.37864259         0.0330770826           169.635456
         0.956009122   -71.09164939999999           0.12937612            27.327211  0.03308193899999999           169.643328          0.133071073           34.4560117
         0.131669293           1.37864259  0.03308193899999999           169.643328          0.134669615   -4.119383930000001          0.956205298          -71.0821758
        0.0330770826           169.635456          0.133071073           34.4560117          0.956205298          -71.0821758          0.129570699           27.3565008

!
           220000000          0.136369971   -8.228352749999997          0.954686305   -74.38691990000001          0.133900511          -2.91414046         0.0335589956            165.90204
         0.954686305   -74.38691990000001          0.131146614           25.2377176         0.0335651199           165.907139          0.135447546           32.2836603
         0.133900511          -2.91414046         0.0335651199           165.907139          0.136664353   -8.243538039999999          0.954890577   -74.37957729999999
        0.0335589956            165.90204          0.135447546           32.2836603          0.954890577   -74.37957729999999          0.131346556           25.2636286

!
           230000000          0.137905754          -12.3988167   0.9534742059999999          -77.6786115          0.135711578          -7.24670962         0.0339627789           162.308871
  0.9534742059999999          -77.6786115          0.132493577           23.2007218         0.0339699009           162.310707          0.137418788           30.1681873
         0.135711578          -7.24670962         0.0339699009           162.310707          0.138220761          -12.4139002          0.953682232   -77.67331780000001
        0.0339627789           162.308871          0.137418788           30.1681873          0.953682232   -77.67331780000001          0.132697606           23.2234629

!
           240000000          0.139005297          -16.6201946          0.952374859   -80.96764210000002          0.137104522          -11.6257255         0.0342982762           158.863351
         0.952374859   -80.96764210000002          0.133423571            21.221632  0.03430605020000001           158.861512          0.138988174           28.1131758
